T14CC 000:048.448   SEGGER J-Link V8.84 Log File
T14CC 000:048.580   DLL Compiled: Nov  5 2025 18:33:42
T14CC 000:048.584   Logging started @ 2025-11-24 09:09
T14CC 000:048.588   Process: D:\software\keil\UV4\UV4.exe
T14CC 000:048.594 - 48.591ms 
T14CC 000:048.602 JLINK_SetWarnOutHandler(...)
T14CC 000:048.605 - 0.005ms 
T14CC 000:048.610 JLINK_OpenEx(...)
T14CC 000:052.491   Firmware: J-Link ARM-OB STM32 compiled Aug 22 2012 19:52:04
T14CC 000:053.560   Firmware: J-Link ARM-OB STM32 compiled Aug 22 2012 19:52:04
T14CC 000:055.382   Hardware: V7.00
T14CC 000:055.393   S/N: 20090928
T14CC 000:055.397   OEM: SEGGER
T14CC 000:055.402   Feature(s): RDI,FlashDL,FlashBP,JFlash,GDB
T14CC 000:055.700   Bootloader: (FW returned invalid version)
T14CC 000:056.368   TELNET listener socket opened on port 19021
T14CC 000:056.456   WEBSRV WEBSRV_Init(): Starting webserver thread(s)
T14CC 000:056.582   WEBSRV Webserver running on local port 19080
T14CC 000:056.703   Looking for J-Link GUI Server exe at: D:\software\keil\ARM\Segger\JLinkGUIServer.exe
T14CC 000:056.741   Looking for J-Link GUI Server exe at: D:\software\jlink\JLink_V884\JLinkGUIServer.exe
T14CC 000:056.768   Forking J-Link GUI Server: D:\software\jlink\JLink_V884\JLinkGUIServer.exe
T14CC 000:061.164   J-Link GUI Server info: "J-Link GUI server V8.84 "
T14CC 000:061.681 - 13.065ms returns "O.K."
T14CC 000:061.707 JLINK_GetEmuCaps()
T14CC 000:061.713 - 0.004ms returns 0x88EA5833
T14CC 000:061.721 JLINK_TIF_GetAvailable(...)
T14CC 000:061.934 - 0.212ms 
T14CC 000:061.950 JLINK_SetErrorOutHandler(...)
T14CC 000:061.955 - 0.004ms 
T14CC 000:061.974 JLINK_ExecCommand("ProjectFile = "D:\project\SPIne\JLinkSettings.ini"", ...). 
T14CC 000:074.302   Ref file found at: D:\software\keil\ARM\Segger\JLinkDevices.ref
T14CC 000:074.414   REF file references invalid XML file: D:\software\jlink\JLink_V884\JLinkDevices.xml
T14CC 000:075.864   Flash bank @ 0x90000000: SFL: Parsing sectorization info from ELF file
T14CC 000:075.878     FlashDevice.SectorInfo[0]: .SectorSize = 0x00010000, .SectorStartAddr = 0x00000000
T14CC 000:081.547   Device "STM32F446RC" selected.
T14CC 000:081.960 - 19.987ms returns 0x00
T14CC 000:083.759 JLINK_ExecCommand("Device = STM32F446RETx", ...). 
T14CC 000:084.634   Flash bank @ 0x90000000: SFL: Parsing sectorization info from ELF file
T14CC 000:084.646     FlashDevice.SectorInfo[0]: .SectorSize = 0x00010000, .SectorStartAddr = 0x00000000
T14CC 000:090.266   Device "STM32F446RC" selected.
T14CC 000:090.768 - 6.992ms returns 0x00
T14CC 000:090.802 JLINK_ExecCommand("DisableConnectionTimeout", ...). 
T14CC 000:090.814   ERROR: Unknown command
T14CC 000:090.819 - 0.011ms returns 0x01
T14CC 000:090.825 JLINK_GetHardwareVersion()
T14CC 000:090.829 - 0.004ms returns 70000
T14CC 000:090.835 JLINK_GetDLLVersion()
T14CC 000:090.839 - 0.005ms returns 88400
T14CC 000:090.844 JLINK_GetOEMString(...)
T14CC 000:090.849 JLINK_GetFirmwareString(...)
T14CC 000:090.853 - 0.003ms 
T14CC 000:095.326 JLINK_GetDLLVersion()
T14CC 000:095.341 - 0.014ms returns 88400
T14CC 000:095.346 JLINK_GetCompileDateTime()
T14CC 000:095.350 - 0.003ms 
T14CC 000:096.884 JLINK_GetFirmwareString(...)
T14CC 000:096.899 - 0.014ms 
T14CC 000:098.410 JLINK_GetHardwareVersion()
T14CC 000:098.423 - 0.013ms returns 70000
T14CC 000:099.768 JLINK_GetSN()
T14CC 000:099.780 - 0.012ms returns 20090928
T14CC 000:103.169 JLINK_GetOEMString(...)
T14CC 000:106.255 JLINK_TIF_Select(JLINKARM_TIF_SWD)
T14CC 000:106.859 - 0.609ms returns 0x00
T14CC 000:106.873 JLINK_HasError()
T14CC 000:106.882 JLINK_SetSpeed(5000)
T14CC 000:106.980 - 0.099ms 
T14CC 000:106.987 JLINK_GetId()
T14CC 000:108.832   InitTarget() start
T14CC 000:108.847    J-Link Script File: Executing InitTarget()
T14CC 000:110.543   SWD selected. Executing JTAG -> SWD switching sequence.
T14CC 000:115.827   DAP initialized successfully.
T14CC 000:129.763   InitTarget() end - Took 19.2ms
T14CC 000:132.218   Found SW-DP with ID 0x2BA01477
T14CC 000:135.757   Old FW that does not support reading DPIDR via DAP jobs
T14CC 000:142.450   DPv0 detected
T14CC 000:143.981   CoreSight SoC-400 or earlier
T14CC 000:145.431   Scanning AP map to find all available APs
T14CC 000:150.367   AP[1]: Stopped AP scan as end of AP map has been reached
T14CC 000:152.483   AP[0]: AHB-AP (IDR: 0x24770011, ADDR: 0x00000000)
T14CC 000:154.019   Iterating through AP map to find AHB-AP to use
T14CC 000:161.381   AP[0]: Core found
T14CC 000:163.247   AP[0]: AHB-AP ROM base: 0xE00FF000
T14CC 000:168.172   CPUID register: 0x410FC241. Implementer code: 0x41 (ARM)
T14CC 000:169.917   Found Cortex-M4 r0p1, Little endian.
T14CC 000:170.534   -- Max. mem block: 0x00002C18
T14CC 000:171.061   CPU_ReadMem(4 bytes @ 0xE000EDF0)
T14CC 000:171.631   CPU_ReadMem(4 bytes @ 0xE0002000)
T14CC 000:173.784   FPUnit: 6 code (BP) slots and 2 literal slots
T14CC 000:173.802   CPU_ReadMem(4 bytes @ 0xE000EDFC)
T14CC 000:174.222   CPU_WriteMem(4 bytes @ 0xE000EDFC)
T14CC 000:174.846   CPU_ReadMem(4 bytes @ 0xE0001000)
T14CC 000:175.276   CPU_WriteMem(4 bytes @ 0xE0001000)
T14CC 000:175.798   CPU_ReadMem(4 bytes @ 0xE000ED88)
T14CC 000:176.303   CPU_WriteMem(4 bytes @ 0xE000ED88)
T14CC 000:176.790   CPU_ReadMem(4 bytes @ 0xE000ED88)
T14CC 000:177.229   CPU_WriteMem(4 bytes @ 0xE000ED88)
T14CC 000:179.926   CoreSight components:
T14CC 000:181.644   ROMTbl[0] @ E00FF000
T14CC 000:181.668   CPU_ReadMem(64 bytes @ 0xE00FF000)
T14CC 000:182.845   CPU_ReadMem(32 bytes @ 0xE000EFE0)
T14CC 000:185.456   [0][0]: E000E000 CID B105E00D PID 000BB00C SCS-M7
T14CC 000:185.479   CPU_ReadMem(32 bytes @ 0xE0001FE0)
T14CC 000:187.730   [0][1]: E0001000 CID B105E00D PID 003BB002 DWT
T14CC 000:187.750   CPU_ReadMem(32 bytes @ 0xE0002FE0)
T14CC 000:190.012   [0][2]: E0002000 CID B105E00D PID 002BB003 FPB
T14CC 000:190.028   CPU_ReadMem(32 bytes @ 0xE0000FE0)
T14CC 000:193.080   [0][3]: E0000000 CID B105E00D PID 003BB001 ITM
T14CC 000:193.099   CPU_ReadMem(32 bytes @ 0xE0040FE0)
T14CC 000:195.425   [0][4]: E0040000 CID B105900D PID 000BB9A1 TPIU
T14CC 000:195.442   CPU_ReadMem(32 bytes @ 0xE0041FE0)
T14CC 000:197.650   [0][5]: E0041000 CID B105900D PID 000BB925 ETM
T14CC 000:198.246 - 91.257ms returns 0x2BA01477
T14CC 000:198.272 JLINK_GetDLLVersion()
T14CC 000:198.276 - 0.003ms returns 88400
T14CC 000:198.280 JLINK_CORE_GetFound()
T14CC 000:198.284 - 0.003ms returns 0xE0000FF
T14CC 000:198.289 JLINK_GetDebugInfo(0x100 = JLINKARM_ROM_TABLE_ADDR_INDEX)
T14CC 000:198.293   Value=0xE00FF000
T14CC 000:198.298 - 0.009ms returns 0
T14CC 000:200.261 JLINK_GetDebugInfo(0x100 = JLINKARM_ROM_TABLE_ADDR_INDEX)
T14CC 000:200.276   Value=0xE00FF000
T14CC 000:200.282 - 0.021ms returns 0
T14CC 000:200.287 JLINK_GetDebugInfo(0x101 = JLINKARM_DEBUG_INFO_ETM_ADDR_INDEX)
T14CC 000:200.291   Value=0xE0041000
T14CC 000:200.296 - 0.008ms returns 0
T14CC 000:200.301 JLINK_ReadMemEx(0xE0041FD0, 0x20 Bytes, Flags = 0x02000004)
T14CC 000:200.325   CPU_ReadMem(32 bytes @ 0xE0041FD0)
T14CC 000:201.184   Data:  04 00 00 00 00 00 00 00 00 00 00 00 00 00 00 00 ...
T14CC 000:201.198 - 0.897ms returns 32 (0x20)
T14CC 000:201.205 JLINK_GetDebugInfo(0x102 = JLINKARM_DEBUG_INFO_MTB_ADDR_INDEX)
T14CC 000:201.209   Value=0x00000000
T14CC 000:201.214 - 0.009ms returns 0
T14CC 000:201.218 JLINK_GetDebugInfo(0x103 = JLINKARM_DEBUG_INFO_TPIU_ADDR_INDEX)
T14CC 000:201.222   Value=0xE0040000
T14CC 000:201.226 - 0.008ms returns 0
T14CC 000:201.231 JLINK_GetDebugInfo(0x104 = JLINKARM_DEBUG_INFO_ITM_ADDR_INDEX)
T14CC 000:201.234   Value=0xE0000000
T14CC 000:201.239 - 0.008ms returns 0
T14CC 000:201.243 JLINK_GetDebugInfo(0x105 = JLINKARM_DEBUG_INFO_DWT_ADDR_INDEX)
T14CC 000:201.246   Value=0xE0001000
T14CC 000:201.251 - 0.008ms returns 0
T14CC 000:201.255 JLINK_GetDebugInfo(0x106 = JLINKARM_DEBUG_INFO_FPB_ADDR_INDEX)
T14CC 000:201.259   Value=0xE0002000
T14CC 000:201.263 - 0.008ms returns 0
T14CC 000:201.268 JLINK_GetDebugInfo(0x107 = JLINKARM_DEBUG_INFO_NVIC_ADDR_INDEX)
T14CC 000:201.271   Value=0xE000E000
T14CC 000:201.276 - 0.008ms returns 0
T14CC 000:201.280 JLINK_GetDebugInfo(0x10C = JLINKARM_DEBUG_INFO_DBG_ADDR_INDEX)
T14CC 000:201.291   Value=0xE000EDF0
T14CC 000:201.296 - 0.016ms returns 0
T14CC 000:201.300 JLINK_GetDebugInfo(0x01 = Unknown)
T14CC 000:201.303   Value=0x00000001
T14CC 000:201.308 - 0.008ms returns 0
T14CC 000:201.312 JLINK_ReadMemU32(0xE000ED00, 0x1 Items)
T14CC 000:201.320   CPU_ReadMem(4 bytes @ 0xE000ED00)
T14CC 000:201.951   Data:  41 C2 0F 41
T14CC 000:202.016   Debug reg: CPUID
T14CC 000:202.046 - 0.732ms returns 1 (0x1)
T14CC 000:202.080 JLINK_GetDebugInfo(0x10F = JLINKARM_DEBUG_INFO_HAS_CORTEX_M_SECURITY_EXT_INDEX)
T14CC 000:202.101   Value=0x00000000
T14CC 000:202.129 - 0.050ms returns 0
T14CC 000:202.152 JLINK_HasError()
T14CC 000:202.178 JLINK_SetResetType(JLINKARM_CM3_RESET_TYPE_NORMAL)
T14CC 000:202.198 - 0.020ms returns JLINKARM_CM3_RESET_TYPE_NORMAL
T14CC 000:202.220 JLINK_Reset()
T14CC 000:202.259   JLINK_GetResetTypeDesc
T14CC 000:202.277   - 0.019ms 
T14CC 000:204.057   Reset type: NORMAL (https://kb.segger.com/J-Link_Reset_Strategies)
T14CC 000:204.072   CPU is running
T14CC 000:204.079   CPU_WriteMem(4 bytes @ 0xE000EDF0)
T14CC 000:204.574   CPU is running
T14CC 000:204.580   CPU_WriteMem(4 bytes @ 0xE000EDFC)
T14CC 000:207.418   Reset: Halt core after reset via DEMCR.VC_CORERESET.
T14CC 000:209.323   Reset: Reset device via AIRCR.SYSRESETREQ.
T14CC 000:209.338   CPU is running
T14CC 000:209.346   CPU_WriteMem(4 bytes @ 0xE000ED0C)
T14CC 000:263.862   CPU_ReadMem(4 bytes @ 0xE000EDF0)
T14CC 000:264.690   CPU_ReadMem(4 bytes @ 0xE000EDF0)
T14CC 000:269.042   CPU_WriteMem(4 bytes @ 0xE000EDFC)
T14CC 000:275.488   CPU_ReadMem(4 bytes @ 0xE000EDF0)
T14CC 000:280.393   CPU_WriteMem(4 bytes @ 0xE0002000)
T14CC 000:281.684   CPU_ReadMem(4 bytes @ 0xE000EDFC)
T14CC 000:282.419   CPU_ReadMem(4 bytes @ 0xE0001000)
T14CC 000:283.091 - 80.869ms 
T14CC 000:283.263 JLINK_Halt()
T14CC 000:283.275 - 0.011ms returns 0x00
T14CC 000:283.286 JLINK_ReadMemU32(0xE000EDF0, 0x1 Items)
T14CC 000:283.308   CPU_ReadMem(4 bytes @ 0xE000EDF0)
T14CC 000:283.862   Data:  03 00 03 00
T14CC 000:283.890   Debug reg: DHCSR
T14CC 000:283.902 - 0.616ms returns 1 (0x1)
T14CC 000:283.925 JLINK_WriteU32(0xE000EDF0, 0xA05F0003)
T14CC 000:283.933   Debug reg: DHCSR
T14CC 000:284.404   CPU_WriteMem(4 bytes @ 0xE000EDF0)
T14CC 000:284.994 - 1.068ms returns 0 (0x00000000)
T14CC 000:285.021 JLINK_WriteU32(0xE000EDFC, 0x01000000)
T14CC 000:285.029   Debug reg: DEMCR
T14CC 000:285.048   CPU_WriteMem(4 bytes @ 0xE000EDFC)
T14CC 000:285.786 - 0.764ms returns 0 (0x00000000)
T14CC 000:329.640 JLINK_GetHWStatus(...)
T14CC 000:330.521 - 0.880ms returns 0
T14CC 000:376.432 JLINK_GetNumBPUnits(Type = 0xFFFFFF00)
T14CC 000:376.499 - 0.067ms returns 0x06
T14CC 000:376.524 JLINK_GetNumBPUnits(Type = 0xF0)
T14CC 000:376.544 - 0.019ms returns 0x2000
T14CC 000:376.564 JLINK_GetNumWPUnits()
T14CC 000:376.583 - 0.018ms returns 4
T14CC 000:397.498 JLINK_GetSpeed()
T14CC 000:397.530 - 0.032ms returns 4000
T14CC 000:404.505 JLINK_ReadMemU32(0xE000E004, 0x1 Items)
T14CC 000:404.551   CPU_ReadMem(4 bytes @ 0xE000E004)
T14CC 000:405.152   Data:  03 00 00 00
T14CC 000:405.176 - 0.671ms returns 1 (0x1)
T14CC 000:405.187 JLINK_ReadMemU32(0xE000E004, 0x1 Items)
T14CC 000:405.201   CPU_ReadMem(4 bytes @ 0xE000E004)
T14CC 000:405.778   Data:  03 00 00 00
T14CC 000:405.801 - 0.614ms returns 1 (0x1)
T14CC 000:405.813 JLINK_WriteMemEx(0xE0001000, 0x0000001C Bytes, Flags = 0x02000004)
T14CC 000:405.821   Data:  01 00 00 00 00 00 00 00 00 00 00 00 00 00 00 00 ...
T14CC 000:405.841   CPU_WriteMem(28 bytes @ 0xE0001000)
T14CC 000:406.756 - 0.943ms returns 0x1C
T14CC 000:406.783 JLINK_Halt()
T14CC 000:406.791 - 0.008ms returns 0x00
T14CC 000:406.799 JLINK_IsHalted()
T14CC 000:406.815 - 0.015ms returns TRUE
T14CC 000:410.911 JLINK_WriteMem(0x20000000, 0x184 Bytes, ...)
T14CC 000:410.950   Data:  00 BE 0A E0 0D 78 2D 06 68 40 08 24 40 00 00 D3 ...
T14CC 000:411.414   CPU_WriteMem(388 bytes @ 0x20000000)
T14CC 000:416.641 - 5.729ms returns 0x184
T14CC 000:416.775 JLINK_HasError()
T14CC 000:416.793 JLINK_WriteReg(R0, 0x08000000)
T14CC 000:416.806 - 0.012ms returns 0
T14CC 000:416.815 JLINK_WriteReg(R1, 0x007A1200)
T14CC 000:416.823 - 0.007ms returns 0
T14CC 000:416.831 JLINK_WriteReg(R2, 0x00000001)
T14CC 000:416.838 - 0.007ms returns 0
T14CC 000:416.846 JLINK_WriteReg(R3, 0x00000000)
T14CC 000:416.853 - 0.007ms returns 0
T14CC 000:416.862 JLINK_WriteReg(R4, 0x00000000)
T14CC 000:416.869 - 0.007ms returns 0
T14CC 000:416.877 JLINK_WriteReg(R5, 0x00000000)
T14CC 000:416.884 - 0.007ms returns 0
T14CC 000:416.892 JLINK_WriteReg(R6, 0x00000000)
T14CC 000:416.899 - 0.007ms returns 0
T14CC 000:416.908 JLINK_WriteReg(R7, 0x00000000)
T14CC 000:416.915 - 0.007ms returns 0
T14CC 000:416.931 JLINK_WriteReg(R8, 0x00000000)
T14CC 000:416.941 - 0.017ms returns 0
T14CC 000:416.949 JLINK_WriteReg(R9, 0x20000180)
T14CC 000:416.956 - 0.007ms returns 0
T14CC 000:416.965 JLINK_WriteReg(R10, 0x00000000)
T14CC 000:416.972 - 0.007ms returns 0
T14CC 000:416.980 JLINK_WriteReg(R11, 0x00000000)
T14CC 000:416.988 - 0.007ms returns 0
T14CC 000:416.997 JLINK_WriteReg(R12, 0x00000000)
T14CC 000:417.004 - 0.007ms returns 0
T14CC 000:417.012 JLINK_WriteReg(R13 (SP), 0x20001000)
T14CC 000:417.021 - 0.008ms returns 0
T14CC 000:417.029 JLINK_WriteReg(R14, 0x20000001)
T14CC 000:417.037 - 0.007ms returns 0
T14CC 000:417.049 JLINK_WriteReg(R15 (PC), 0x20000054)
T14CC 000:417.058 - 0.011ms returns 0
T14CC 000:417.066 JLINK_WriteReg(XPSR, 0x01000000)
T14CC 000:417.074 - 0.007ms returns 0
T14CC 000:417.082 JLINK_WriteReg(MSP, 0x20001000)
T14CC 000:417.089 - 0.007ms returns 0
T14CC 000:417.098 JLINK_WriteReg(PSP, 0x20001000)
T14CC 000:417.105 - 0.007ms returns 0
T14CC 000:417.114 JLINK_WriteReg(CFBP, 0x00000000)
T14CC 000:417.121 - 0.007ms returns 0
T14CC 000:417.130 JLINK_SetBPEx(Addr = 0x20000000, Type = 0xFFFFFFF2)
T14CC 000:417.146   CPU_ReadMem(2 bytes @ 0x20000000)
T14CC 000:417.684 - 0.553ms returns 0x00000001
T14CC 000:417.709 JLINK_Go()
T14CC 000:417.721   CPU_WriteMem(2 bytes @ 0x20000000)
T14CC 000:418.317   CPU_ReadMem(4 bytes @ 0xE0001000)
T14CC 000:419.019   CPU_WriteMem(4 bytes @ 0xE0002008)
T14CC 000:419.046   CPU_WriteMem(4 bytes @ 0xE000200C)
T14CC 000:419.056   CPU_WriteMem(4 bytes @ 0xE0002010)
T14CC 000:419.067   CPU_WriteMem(4 bytes @ 0xE0002014)
T14CC 000:419.077   CPU_WriteMem(4 bytes @ 0xE0002018)
T14CC 000:419.088   CPU_WriteMem(4 bytes @ 0xE000201C)
T14CC 000:421.550   CPU_WriteMem(4 bytes @ 0xE0001004)
T14CC 000:428.758   Memory map 'after startup completion point' is active
T14CC 000:428.798 - 11.089ms 
T14CC 000:428.812 JLINK_IsHalted()
T14CC 000:432.262   CPU_ReadMem(2 bytes @ 0x20000000)
T14CC 000:432.784 - 3.971ms returns TRUE
T14CC 000:432.871 JLINK_ReadReg(R15 (PC))
T14CC 000:432.893 - 0.022ms returns 0x20000000
T14CC 000:432.903 JLINK_ClrBPEx(BPHandle = 0x00000001)
T14CC 000:432.910 - 0.007ms returns 0x00
T14CC 000:432.919 JLINK_ReadReg(R0)
T14CC 000:432.926 - 0.007ms returns 0x00000000
T14CC 000:433.408 JLINK_HasError()
T14CC 000:433.429 JLINK_WriteReg(R0, 0x08000000)
T14CC 000:433.439 - 0.009ms returns 0
T14CC 000:433.447 JLINK_WriteReg(R1, 0x00004000)
T14CC 000:433.455 - 0.007ms returns 0
T14CC 000:433.462 JLINK_WriteReg(R2, 0x000000FF)
T14CC 000:433.469 - 0.006ms returns 0
T14CC 000:433.476 JLINK_WriteReg(R3, 0x00000000)
T14CC 000:433.483 - 0.006ms returns 0
T14CC 000:433.491 JLINK_WriteReg(R4, 0x00000000)
T14CC 000:433.498 - 0.006ms returns 0
T14CC 000:433.505 JLINK_WriteReg(R5, 0x00000000)
T14CC 000:433.512 - 0.006ms returns 0
T14CC 000:433.520 JLINK_WriteReg(R6, 0x00000000)
T14CC 000:433.526 - 0.006ms returns 0
T14CC 000:433.534 JLINK_WriteReg(R7, 0x00000000)
T14CC 000:433.541 - 0.006ms returns 0
T14CC 000:433.548 JLINK_WriteReg(R8, 0x00000000)
T14CC 000:433.555 - 0.006ms returns 0
T14CC 000:433.563 JLINK_WriteReg(R9, 0x20000180)
T14CC 000:433.569 - 0.006ms returns 0
T14CC 000:433.577 JLINK_WriteReg(R10, 0x00000000)
T14CC 000:433.584 - 0.006ms returns 0
T14CC 000:433.591 JLINK_WriteReg(R11, 0x00000000)
T14CC 000:433.661 - 0.069ms returns 0
T14CC 000:433.669 JLINK_WriteReg(R12, 0x00000000)
T14CC 000:433.676 - 0.007ms returns 0
T14CC 000:433.684 JLINK_WriteReg(R13 (SP), 0x20001000)
T14CC 000:433.692 - 0.007ms returns 0
T14CC 000:433.699 JLINK_WriteReg(R14, 0x20000001)
T14CC 000:433.706 - 0.006ms returns 0
T14CC 000:433.714 JLINK_WriteReg(R15 (PC), 0x20000020)
T14CC 000:433.720 - 0.006ms returns 0
T14CC 000:433.728 JLINK_WriteReg(XPSR, 0x01000000)
T14CC 000:433.735 - 0.006ms returns 0
T14CC 000:433.743 JLINK_WriteReg(MSP, 0x20001000)
T14CC 000:433.750 - 0.006ms returns 0
T14CC 000:433.757 JLINK_WriteReg(PSP, 0x20001000)
T14CC 000:433.764 - 0.006ms returns 0
T14CC 000:433.772 JLINK_WriteReg(CFBP, 0x00000000)
T14CC 000:433.778 - 0.006ms returns 0
T14CC 000:433.787 JLINK_SetBPEx(Addr = 0x20000000, Type = 0xFFFFFFF2)
T14CC 000:433.795 - 0.008ms returns 0x00000002
T14CC 000:433.803 JLINK_Go()
T14CC 000:433.820   CPU_ReadMem(4 bytes @ 0xE0001000)
T14CC 000:437.754 - 3.949ms 
T14CC 000:437.790 JLINK_IsHalted()
T14CC 000:441.348   CPU_ReadMem(2 bytes @ 0x20000000)
T14CC 000:441.980 - 4.189ms returns TRUE
T14CC 000:442.018 JLINK_ReadReg(R15 (PC))
T14CC 000:442.025 - 0.006ms returns 0x20000000
T14CC 000:442.030 JLINK_ClrBPEx(BPHandle = 0x00000002)
T14CC 000:442.034 - 0.004ms returns 0x00
T14CC 000:442.038 JLINK_ReadReg(R0)
T14CC 000:442.042 - 0.003ms returns 0x00000001
T14CC 000:442.047 JLINK_HasError()
T14CC 000:442.052 JLINK_WriteReg(R0, 0x08000000)
T14CC 000:442.056 - 0.004ms returns 0
T14CC 000:442.060 JLINK_WriteReg(R1, 0x00004000)
T14CC 000:442.064 - 0.003ms returns 0
T14CC 000:442.068 JLINK_WriteReg(R2, 0x000000FF)
T14CC 000:442.071 - 0.003ms returns 0
T14CC 000:442.075 JLINK_WriteReg(R3, 0x00000000)
T14CC 000:442.079 - 0.003ms returns 0
T14CC 000:442.083 JLINK_WriteReg(R4, 0x00000000)
T14CC 000:442.086 - 0.003ms returns 0
T14CC 000:442.090 JLINK_WriteReg(R5, 0x00000000)
T14CC 000:442.094 - 0.003ms returns 0
T14CC 000:442.097 JLINK_WriteReg(R6, 0x00000000)
T14CC 000:442.101 - 0.003ms returns 0
T14CC 000:442.105 JLINK_WriteReg(R7, 0x00000000)
T14CC 000:442.108 - 0.003ms returns 0
T14CC 000:442.112 JLINK_WriteReg(R8, 0x00000000)
T14CC 000:442.116 - 0.003ms returns 0
T14CC 000:442.120 JLINK_WriteReg(R9, 0x20000180)
T14CC 000:442.123 - 0.003ms returns 0
T14CC 000:442.127 JLINK_WriteReg(R10, 0x00000000)
T14CC 000:442.131 - 0.003ms returns 0
T14CC 000:442.135 JLINK_WriteReg(R11, 0x00000000)
T14CC 000:442.138 - 0.003ms returns 0
T14CC 000:442.142 JLINK_WriteReg(R12, 0x00000000)
T14CC 000:442.145 - 0.003ms returns 0
T14CC 000:442.150 JLINK_WriteReg(R13 (SP), 0x20001000)
T14CC 000:442.153 - 0.003ms returns 0
T14CC 000:442.157 JLINK_WriteReg(R14, 0x20000001)
T14CC 000:442.161 - 0.003ms returns 0
T14CC 000:442.165 JLINK_WriteReg(R15 (PC), 0x200000C0)
T14CC 000:442.168 - 0.003ms returns 0
T14CC 000:442.172 JLINK_WriteReg(XPSR, 0x01000000)
T14CC 000:442.176 - 0.003ms returns 0
T14CC 000:442.180 JLINK_WriteReg(MSP, 0x20001000)
T14CC 000:442.183 - 0.003ms returns 0
T14CC 000:442.187 JLINK_WriteReg(PSP, 0x20001000)
T14CC 000:442.191 - 0.003ms returns 0
T14CC 000:442.195 JLINK_WriteReg(CFBP, 0x00000000)
T14CC 000:442.199 - 0.003ms returns 0
T14CC 000:442.204 JLINK_SetBPEx(Addr = 0x20000000, Type = 0xFFFFFFF2)
T14CC 000:442.209 - 0.005ms returns 0x00000003
T14CC 000:442.213 JLINK_Go()
T14CC 000:442.223   CPU_ReadMem(4 bytes @ 0xE0001000)
T14CC 000:446.523 - 4.309ms 
T14CC 000:446.547 JLINK_IsHalted()
T14CC 000:447.273 - 0.725ms returns FALSE
T14CC 000:447.284 JLINK_HasError()
T14CC 000:493.097 JLINK_IsHalted()
T14CC 000:494.936 - 1.835ms returns FALSE
T14CC 000:495.025 JLINK_HasError()
T14CC 000:508.729 JLINK_IsHalted()
T14CC 000:510.138 - 1.408ms returns FALSE
T14CC 000:510.227 JLINK_HasError()
T14CC 000:524.293 JLINK_IsHalted()
T14CC 000:525.150 - 0.855ms returns FALSE
T14CC 000:525.250 JLINK_HasError()
T14CC 000:539.475 JLINK_IsHalted()
T14CC 000:540.330 - 0.854ms returns FALSE
T14CC 000:540.435 JLINK_HasError()
T14CC 000:554.404 JLINK_IsHalted()
T14CC 000:555.622 - 1.218ms returns FALSE
T14CC 000:555.639 JLINK_HasError()
T14CC 000:569.231 JLINK_IsHalted()
T14CC 000:569.995 - 0.762ms returns FALSE
T14CC 000:570.022 JLINK_HasError()
T14CC 000:584.491 JLINK_IsHalted()
T14CC 000:588.219 - 3.726ms returns FALSE
T14CC 000:588.493 JLINK_HasError()
T14CC 000:600.132 JLINK_IsHalted()
T14CC 000:601.682 - 1.548ms returns FALSE
T14CC 000:601.755 JLINK_HasError()
T14CC 000:614.888 JLINK_IsHalted()
T14CC 000:615.962 - 1.072ms returns FALSE
T14CC 000:616.032 JLINK_HasError()
T14CC 000:629.874 JLINK_IsHalted()
T14CC 000:632.037 - 2.161ms returns FALSE
T14CC 000:632.079 JLINK_HasError()
T14CC 000:656.984 JLINK_IsHalted()
T14CC 000:657.602 - 0.616ms returns FALSE
T14CC 000:657.663 JLINK_HasError()
T14CC 000:672.138 JLINK_IsHalted()
T14CC 000:672.763 - 0.624ms returns FALSE
T14CC 000:672.788 JLINK_HasError()
T14CC 000:688.303 JLINK_IsHalted()
T14CC 000:689.103 - 0.795ms returns FALSE
T14CC 000:689.138 JLINK_HasError()
T14CC 000:699.553 JLINK_IsHalted()
T14CC 000:700.323 - 0.768ms returns FALSE
T14CC 000:700.368 JLINK_HasError()
T14CC 000:715.956 JLINK_IsHalted()
T14CC 000:716.635 - 0.677ms returns FALSE
T14CC 000:716.679 JLINK_HasError()
T14CC 000:730.512 JLINK_IsHalted()
T14CC 000:731.320 - 0.807ms returns FALSE
T14CC 000:731.407 JLINK_HasError()
T14CC 000:741.678 JLINK_IsHalted()
T14CC 000:742.776 - 1.096ms returns FALSE
T14CC 000:742.923 JLINK_HasError()
T14CC 000:755.363 JLINK_IsHalted()
T14CC 000:756.861 - 1.497ms returns FALSE
T14CC 000:756.953 JLINK_HasError()
T14CC 000:766.052 JLINK_IsHalted()
T14CC 000:766.905 - 0.852ms returns FALSE
T14CC 000:766.960 JLINK_HasError()
T14CC 000:776.725 JLINK_IsHalted()
T14CC 000:777.722 - 0.996ms returns FALSE
T14CC 000:777.770 JLINK_HasError()
T14CC 000:789.671 JLINK_IsHalted()
T14CC 000:790.370 - 0.698ms returns FALSE
T14CC 000:790.418 JLINK_HasError()
T14CC 000:803.981 JLINK_IsHalted()
T14CC 000:804.875 - 0.894ms returns FALSE
T14CC 000:804.897 JLINK_HasError()
T14CC 000:818.729 JLINK_IsHalted()
T14CC 000:822.222   CPU_ReadMem(2 bytes @ 0x20000000)
T14CC 000:822.972 - 4.241ms returns TRUE
T14CC 000:823.042 JLINK_ReadReg(R15 (PC))
T14CC 000:823.050 - 0.008ms returns 0x20000000
T14CC 000:823.056 JLINK_ClrBPEx(BPHandle = 0x00000003)
T14CC 000:823.062 - 0.005ms returns 0x00
T14CC 000:823.069 JLINK_ReadReg(R0)
T14CC 000:823.074 - 0.005ms returns 0x00000000
T14CC 000:823.709 JLINK_HasError()
T14CC 000:823.724 JLINK_WriteReg(R0, 0x08004000)
T14CC 000:823.730 - 0.006ms returns 0
T14CC 000:823.736 JLINK_WriteReg(R1, 0x00004000)
T14CC 000:823.740 - 0.004ms returns 0
T14CC 000:823.745 JLINK_WriteReg(R2, 0x000000FF)
T14CC 000:823.749 - 0.004ms returns 0
T14CC 000:823.754 JLINK_WriteReg(R3, 0x00000000)
T14CC 000:823.759 - 0.004ms returns 0
T14CC 000:823.764 JLINK_WriteReg(R4, 0x00000000)
T14CC 000:823.768 - 0.004ms returns 0
T14CC 000:823.773 JLINK_WriteReg(R5, 0x00000000)
T14CC 000:823.777 - 0.004ms returns 0
T14CC 000:823.782 JLINK_WriteReg(R6, 0x00000000)
T14CC 000:823.787 - 0.004ms returns 0
T14CC 000:823.792 JLINK_WriteReg(R7, 0x00000000)
T14CC 000:823.796 - 0.004ms returns 0
T14CC 000:823.801 JLINK_WriteReg(R8, 0x00000000)
T14CC 000:823.805 - 0.004ms returns 0
T14CC 000:823.810 JLINK_WriteReg(R9, 0x20000180)
T14CC 000:823.815 - 0.004ms returns 0
T14CC 000:823.820 JLINK_WriteReg(R10, 0x00000000)
T14CC 000:823.824 - 0.004ms returns 0
T14CC 000:823.829 JLINK_WriteReg(R11, 0x00000000)
T14CC 000:823.833 - 0.004ms returns 0
T14CC 000:823.838 JLINK_WriteReg(R12, 0x00000000)
T14CC 000:823.843 - 0.004ms returns 0
T14CC 000:823.848 JLINK_WriteReg(R13 (SP), 0x20001000)
T14CC 000:823.853 - 0.005ms returns 0
T14CC 000:823.858 JLINK_WriteReg(R14, 0x20000001)
T14CC 000:823.862 - 0.004ms returns 0
T14CC 000:823.867 JLINK_WriteReg(R15 (PC), 0x20000020)
T14CC 000:823.871 - 0.004ms returns 0
T14CC 000:823.877 JLINK_WriteReg(XPSR, 0x01000000)
T14CC 000:823.881 - 0.004ms returns 0
T14CC 000:823.886 JLINK_WriteReg(MSP, 0x20001000)
T14CC 000:823.890 - 0.004ms returns 0
T14CC 000:823.904 JLINK_WriteReg(PSP, 0x20001000)
T14CC 000:823.908 - 0.004ms returns 0
T14CC 000:823.913 JLINK_WriteReg(CFBP, 0x00000000)
T14CC 000:823.918 - 0.004ms returns 0
T14CC 000:823.923 JLINK_SetBPEx(Addr = 0x20000000, Type = 0xFFFFFFF2)
T14CC 000:823.930 - 0.006ms returns 0x00000004
T14CC 000:823.935 JLINK_Go()
T14CC 000:823.947   CPU_ReadMem(4 bytes @ 0xE0001000)
T14CC 000:827.936 - 4.000ms 
T14CC 000:827.953 JLINK_IsHalted()
T14CC 000:831.419   CPU_ReadMem(2 bytes @ 0x20000000)
T14CC 000:831.946 - 3.992ms returns TRUE
T14CC 000:831.953 JLINK_ReadReg(R15 (PC))
T14CC 000:831.960 - 0.006ms returns 0x20000000
T14CC 000:831.965 JLINK_ClrBPEx(BPHandle = 0x00000004)
T14CC 000:831.969 - 0.004ms returns 0x00
T14CC 000:831.974 JLINK_ReadReg(R0)
T14CC 000:831.979 - 0.004ms returns 0x00000001
T14CC 000:831.984 JLINK_HasError()
T14CC 000:831.989 JLINK_WriteReg(R0, 0x08004000)
T14CC 000:831.994 - 0.005ms returns 0
T14CC 000:831.999 JLINK_WriteReg(R1, 0x00004000)
T14CC 000:832.003 - 0.004ms returns 0
T14CC 000:832.007 JLINK_WriteReg(R2, 0x000000FF)
T14CC 000:832.011 - 0.004ms returns 0
T14CC 000:832.016 JLINK_WriteReg(R3, 0x00000000)
T14CC 000:832.020 - 0.003ms returns 0
T14CC 000:832.024 JLINK_WriteReg(R4, 0x00000000)
T14CC 000:832.028 - 0.004ms returns 0
T14CC 000:832.033 JLINK_WriteReg(R5, 0x00000000)
T14CC 000:832.037 - 0.004ms returns 0
T14CC 000:832.042 JLINK_WriteReg(R6, 0x00000000)
T14CC 000:832.046 - 0.004ms returns 0
T14CC 000:832.050 JLINK_WriteReg(R7, 0x00000000)
T14CC 000:832.054 - 0.004ms returns 0
T14CC 000:832.059 JLINK_WriteReg(R8, 0x00000000)
T14CC 000:832.063 - 0.004ms returns 0
T14CC 000:832.067 JLINK_WriteReg(R9, 0x20000180)
T14CC 000:832.071 - 0.004ms returns 0
T14CC 000:832.076 JLINK_WriteReg(R10, 0x00000000)
T14CC 000:832.080 - 0.004ms returns 0
T14CC 000:832.084 JLINK_WriteReg(R11, 0x00000000)
T14CC 000:832.088 - 0.004ms returns 0
T14CC 000:832.093 JLINK_WriteReg(R12, 0x00000000)
T14CC 000:832.097 - 0.004ms returns 0
T14CC 000:832.101 JLINK_WriteReg(R13 (SP), 0x20001000)
T14CC 000:832.106 - 0.004ms returns 0
T14CC 000:832.110 JLINK_WriteReg(R14, 0x20000001)
T14CC 000:832.114 - 0.004ms returns 0
T14CC 000:832.119 JLINK_WriteReg(R15 (PC), 0x200000C0)
T14CC 000:832.123 - 0.004ms returns 0
T14CC 000:832.127 JLINK_WriteReg(XPSR, 0x01000000)
T14CC 000:832.131 - 0.004ms returns 0
T14CC 000:832.136 JLINK_WriteReg(MSP, 0x20001000)
T14CC 000:832.140 - 0.004ms returns 0
T14CC 000:832.144 JLINK_WriteReg(PSP, 0x20001000)
T14CC 000:832.148 - 0.003ms returns 0
T14CC 000:832.153 JLINK_WriteReg(CFBP, 0x00000000)
T14CC 000:832.157 - 0.004ms returns 0
T14CC 000:832.162 JLINK_SetBPEx(Addr = 0x20000000, Type = 0xFFFFFFF2)
T14CC 000:832.166 - 0.004ms returns 0x00000005
T14CC 000:832.171 JLINK_Go()
T14CC 000:832.181   CPU_ReadMem(4 bytes @ 0xE0001000)
T14CC 000:835.857 - 3.685ms 
T14CC 000:835.873 JLINK_IsHalted()
T14CC 000:836.328 - 0.455ms returns FALSE
T14CC 000:836.334 JLINK_HasError()
T14CC 000:849.942 JLINK_IsHalted()
T14CC 000:850.780 - 0.836ms returns FALSE
T14CC 000:850.930 JLINK_HasError()
T14CC 000:863.755 JLINK_IsHalted()
T14CC 000:864.446 - 0.691ms returns FALSE
T14CC 000:864.470 JLINK_HasError()
T14CC 000:877.683 JLINK_IsHalted()
T14CC 000:878.321 - 0.636ms returns FALSE
T14CC 000:878.357 JLINK_HasError()
T14CC 000:893.067 JLINK_IsHalted()
T14CC 000:893.762 - 0.694ms returns FALSE
T14CC 000:893.806 JLINK_HasError()
T14CC 000:907.160 JLINK_IsHalted()
T14CC 000:907.969 - 0.807ms returns FALSE
T14CC 000:908.047 JLINK_HasError()
T14CC 000:927.591 JLINK_IsHalted()
T14CC 000:930.169 - 2.575ms returns FALSE
T14CC 000:930.234 JLINK_HasError()
T14CC 000:943.000 JLINK_IsHalted()
T14CC 000:946.026 - 3.023ms returns FALSE
T14CC 000:946.292 JLINK_HasError()
T14CC 000:962.902 JLINK_IsHalted()
T14CC 000:964.634 - 1.730ms returns FALSE
T14CC 000:964.708 JLINK_HasError()
T14CC 000:988.127 JLINK_IsHalted()
T14CC 000:995.907 - 7.778ms returns FALSE
T14CC 000:995.962 JLINK_HasError()
T14CC 001:003.958 JLINK_IsHalted()
T14CC 001:007.190 - 3.230ms returns FALSE
T14CC 001:007.236 JLINK_HasError()
T14CC 001:016.246 JLINK_IsHalted()
T14CC 001:017.250 - 1.001ms returns FALSE
T14CC 001:017.301 JLINK_HasError()
T14CC 001:029.774 JLINK_IsHalted()
T14CC 001:030.547 - 0.773ms returns FALSE
T14CC 001:030.656 JLINK_HasError()
T14CC 001:043.915 JLINK_IsHalted()
T14CC 001:044.545 - 0.628ms returns FALSE
T14CC 001:044.592 JLINK_HasError()
T14CC 001:059.500 JLINK_IsHalted()
T14CC 001:060.643 - 1.141ms returns FALSE
T14CC 001:060.762 JLINK_HasError()
T14CC 001:079.168 JLINK_IsHalted()
T14CC 001:079.796 - 0.627ms returns FALSE
T14CC 001:079.833 JLINK_HasError()
T14CC 001:089.462 JLINK_IsHalted()
T14CC 001:090.300 - 0.836ms returns FALSE
T14CC 001:090.424 JLINK_HasError()
T14CC 001:105.610 JLINK_IsHalted()
T14CC 001:106.542 - 0.930ms returns FALSE
T14CC 001:106.600 JLINK_HasError()
T14CC 001:117.449 JLINK_IsHalted()
T14CC 001:118.186 - 0.735ms returns FALSE
T14CC 001:118.243 JLINK_HasError()
T14CC 001:130.907 JLINK_IsHalted()
T14CC 001:131.921 - 1.013ms returns FALSE
T14CC 001:131.997 JLINK_HasError()
T14CC 001:141.824 JLINK_IsHalted()
T14CC 001:143.564 - 1.739ms returns FALSE
T14CC 001:143.624 JLINK_HasError()
T14CC 001:157.795 JLINK_IsHalted()
T14CC 001:159.298 - 1.501ms returns FALSE
T14CC 001:159.424 JLINK_HasError()
T14CC 001:172.660 JLINK_IsHalted()
T14CC 001:173.648 - 0.987ms returns FALSE
T14CC 001:173.698 JLINK_HasError()
T14CC 001:193.777 JLINK_IsHalted()
T14CC 001:194.553 - 0.774ms returns FALSE
T14CC 001:194.658 JLINK_HasError()
T14CC 001:203.093 JLINK_IsHalted()
T14CC 001:206.892   CPU_ReadMem(2 bytes @ 0x20000000)
T14CC 001:207.503 - 4.408ms returns TRUE
T14CC 001:207.543 JLINK_ReadReg(R15 (PC))
T14CC 001:207.564 - 0.020ms returns 0x20000000
T14CC 001:207.580 JLINK_ClrBPEx(BPHandle = 0x00000005)
T14CC 001:207.595 - 0.015ms returns 0x00
T14CC 001:207.610 JLINK_ReadReg(R0)
T14CC 001:207.624 - 0.013ms returns 0x00000000
T14CC 001:209.352 JLINK_HasError()
T14CC 001:209.412 JLINK_WriteReg(R0, 0x08008000)
T14CC 001:209.437 - 0.025ms returns 0
T14CC 001:209.459 JLINK_WriteReg(R1, 0x00004000)
T14CC 001:209.475 - 0.017ms returns 0
T14CC 001:209.493 JLINK_WriteReg(R2, 0x000000FF)
T14CC 001:209.508 - 0.015ms returns 0
T14CC 001:209.526 JLINK_WriteReg(R3, 0x00000000)
T14CC 001:209.542 - 0.015ms returns 0
T14CC 001:209.559 JLINK_WriteReg(R4, 0x00000000)
T14CC 001:209.574 - 0.015ms returns 0
T14CC 001:209.592 JLINK_WriteReg(R5, 0x00000000)
T14CC 001:209.607 - 0.015ms returns 0
T14CC 001:209.624 JLINK_WriteReg(R6, 0x00000000)
T14CC 001:209.639 - 0.014ms returns 0
T14CC 001:209.656 JLINK_WriteReg(R7, 0x00000000)
T14CC 001:209.672 - 0.015ms returns 0
T14CC 001:209.689 JLINK_WriteReg(R8, 0x00000000)
T14CC 001:209.704 - 0.015ms returns 0
T14CC 001:209.721 JLINK_WriteReg(R9, 0x20000180)
T14CC 001:209.737 - 0.015ms returns 0
T14CC 001:209.754 JLINK_WriteReg(R10, 0x00000000)
T14CC 001:209.770 - 0.015ms returns 0
T14CC 001:209.787 JLINK_WriteReg(R11, 0x00000000)
T14CC 001:209.802 - 0.015ms returns 0
T14CC 001:209.820 JLINK_WriteReg(R12, 0x00000000)
T14CC 001:209.835 - 0.015ms returns 0
T14CC 001:209.852 JLINK_WriteReg(R13 (SP), 0x20001000)
T14CC 001:209.869 - 0.017ms returns 0
T14CC 001:209.887 JLINK_WriteReg(R14, 0x20000001)
T14CC 001:209.902 - 0.015ms returns 0
T14CC 001:209.919 JLINK_WriteReg(R15 (PC), 0x20000020)
T14CC 001:209.935 - 0.016ms returns 0
T14CC 001:209.953 JLINK_WriteReg(XPSR, 0x01000000)
T14CC 001:210.023 - 0.070ms returns 0
T14CC 001:210.042 JLINK_WriteReg(MSP, 0x20001000)
T14CC 001:210.057 - 0.015ms returns 0
T14CC 001:210.075 JLINK_WriteReg(PSP, 0x20001000)
T14CC 001:210.090 - 0.015ms returns 0
T14CC 001:210.108 JLINK_WriteReg(CFBP, 0x00000000)
T14CC 001:210.123 - 0.015ms returns 0
T14CC 001:210.143 JLINK_SetBPEx(Addr = 0x20000000, Type = 0xFFFFFFF2)
T14CC 001:210.162 - 0.020ms returns 0x00000006
T14CC 001:210.180 JLINK_Go()
T14CC 001:210.222   CPU_ReadMem(4 bytes @ 0xE0001000)
T14CC 001:214.355 - 4.173ms 
T14CC 001:214.394 JLINK_IsHalted()
T14CC 001:218.173   CPU_ReadMem(2 bytes @ 0x20000000)
T14CC 001:218.904 - 4.508ms returns TRUE
T14CC 001:218.952 JLINK_ReadReg(R15 (PC))
T14CC 001:218.969 - 0.016ms returns 0x20000000
T14CC 001:218.981 JLINK_ClrBPEx(BPHandle = 0x00000006)
T14CC 001:218.993 - 0.012ms returns 0x00
T14CC 001:219.037 JLINK_ReadReg(R0)
T14CC 001:219.049 - 0.012ms returns 0x00000001
T14CC 001:219.062 JLINK_HasError()
T14CC 001:219.076 JLINK_WriteReg(R0, 0x08008000)
T14CC 001:219.088 - 0.012ms returns 0
T14CC 001:219.100 JLINK_WriteReg(R1, 0x00004000)
T14CC 001:219.110 - 0.010ms returns 0
T14CC 001:219.122 JLINK_WriteReg(R2, 0x000000FF)
T14CC 001:219.132 - 0.010ms returns 0
T14CC 001:219.143 JLINK_WriteReg(R3, 0x00000000)
T14CC 001:219.154 - 0.010ms returns 0
T14CC 001:219.165 JLINK_WriteReg(R4, 0x00000000)
T14CC 001:219.175 - 0.010ms returns 0
T14CC 001:219.187 JLINK_WriteReg(R5, 0x00000000)
T14CC 001:219.197 - 0.010ms returns 0
T14CC 001:219.208 JLINK_WriteReg(R6, 0x00000000)
T14CC 001:219.218 - 0.010ms returns 0
T14CC 001:219.230 JLINK_WriteReg(R7, 0x00000000)
T14CC 001:219.240 - 0.010ms returns 0
T14CC 001:219.252 JLINK_WriteReg(R8, 0x00000000)
T14CC 001:219.262 - 0.010ms returns 0
T14CC 001:219.273 JLINK_WriteReg(R9, 0x20000180)
T14CC 001:219.284 - 0.010ms returns 0
T14CC 001:219.295 JLINK_WriteReg(R10, 0x00000000)
T14CC 001:219.305 - 0.010ms returns 0
T14CC 001:219.316 JLINK_WriteReg(R11, 0x00000000)
T14CC 001:219.327 - 0.010ms returns 0
T14CC 001:219.339 JLINK_WriteReg(R12, 0x00000000)
T14CC 001:219.349 - 0.010ms returns 0
T14CC 001:219.360 JLINK_WriteReg(R13 (SP), 0x20001000)
T14CC 001:219.437 - 0.075ms returns 0
T14CC 001:219.459 JLINK_WriteReg(R14, 0x20000001)
T14CC 001:219.470 - 0.012ms returns 0
T14CC 001:219.483 JLINK_WriteReg(R15 (PC), 0x200000C0)
T14CC 001:219.493 - 0.011ms returns 0
T14CC 001:219.505 JLINK_WriteReg(XPSR, 0x01000000)
T14CC 001:219.515 - 0.010ms returns 0
T14CC 001:219.527 JLINK_WriteReg(MSP, 0x20001000)
T14CC 001:219.537 - 0.010ms returns 0
T14CC 001:219.549 JLINK_WriteReg(PSP, 0x20001000)
T14CC 001:219.560 - 0.011ms returns 0
T14CC 001:219.571 JLINK_WriteReg(CFBP, 0x00000000)
T14CC 001:219.580 - 0.009ms returns 0
T14CC 001:219.593 JLINK_SetBPEx(Addr = 0x20000000, Type = 0xFFFFFFF2)
T14CC 001:219.605 - 0.013ms returns 0x00000007
T14CC 001:219.616 JLINK_Go()
T14CC 001:219.641   CPU_ReadMem(4 bytes @ 0xE0001000)
T14CC 001:223.731 - 4.113ms 
T14CC 001:223.761 JLINK_IsHalted()
T14CC 001:224.473 - 0.711ms returns FALSE
T14CC 001:224.502 JLINK_HasError()
T14CC 001:229.740 JLINK_IsHalted()
T14CC 001:231.194 - 1.452ms returns FALSE
T14CC 001:231.279 JLINK_HasError()
T14CC 001:246.716 JLINK_IsHalted()
T14CC 001:247.948 - 1.231ms returns FALSE
T14CC 001:247.989 JLINK_HasError()
T14CC 001:261.320 JLINK_IsHalted()
T14CC 001:262.037 - 0.716ms returns FALSE
T14CC 001:262.085 JLINK_HasError()
T14CC 001:274.900 JLINK_IsHalted()
T14CC 001:275.601 - 0.700ms returns FALSE
T14CC 001:275.646 JLINK_HasError()
T14CC 001:284.896 JLINK_IsHalted()
T14CC 001:286.278 - 1.381ms returns FALSE
T14CC 001:286.312 JLINK_HasError()
T14CC 001:303.101 JLINK_IsHalted()
T14CC 001:307.267 - 4.165ms returns FALSE
T14CC 001:307.321 JLINK_HasError()
T14CC 001:319.029 JLINK_IsHalted()
T14CC 001:320.221 - 1.191ms returns FALSE
T14CC 001:320.256 JLINK_HasError()
T14CC 001:328.590 JLINK_IsHalted()
T14CC 001:329.419 - 0.828ms returns FALSE
T14CC 001:329.455 JLINK_HasError()
T14CC 001:343.875 JLINK_IsHalted()
T14CC 001:344.517 - 0.641ms returns FALSE
T14CC 001:344.557 JLINK_HasError()
T14CC 001:355.050 JLINK_IsHalted()
T14CC 001:355.680 - 0.628ms returns FALSE
T14CC 001:355.720 JLINK_HasError()
T14CC 001:370.866 JLINK_IsHalted()
T14CC 001:371.671 - 0.803ms returns FALSE
T14CC 001:371.698 JLINK_HasError()
T14CC 001:381.364 JLINK_IsHalted()
T14CC 001:382.111 - 0.745ms returns FALSE
T14CC 001:382.144 JLINK_HasError()
T14CC 001:393.366 JLINK_IsHalted()
T14CC 001:394.085 - 0.718ms returns FALSE
T14CC 001:394.130 JLINK_HasError()
T14CC 001:407.595 JLINK_IsHalted()
T14CC 001:408.189 - 0.592ms returns FALSE
T14CC 001:408.331 JLINK_HasError()
T14CC 001:417.663 JLINK_IsHalted()
T14CC 001:418.219 - 0.555ms returns FALSE
T14CC 001:418.247 JLINK_HasError()
T14CC 001:432.569 JLINK_IsHalted()
T14CC 001:433.431 - 0.637ms returns FALSE
T14CC 001:433.555 JLINK_HasError()
T14CC 001:444.945 JLINK_IsHalted()
T14CC 001:445.668 - 0.722ms returns FALSE
T14CC 001:445.708 JLINK_HasError()
T14CC 001:458.830 JLINK_IsHalted()
T14CC 001:460.043 - 1.211ms returns FALSE
T14CC 001:460.093 JLINK_HasError()
T14CC 001:469.445 JLINK_IsHalted()
T14CC 001:470.433 - 0.987ms returns FALSE
T14CC 001:470.478 JLINK_HasError()
T14CC 001:485.176 JLINK_IsHalted()
T14CC 001:486.160 - 0.983ms returns FALSE
T14CC 001:486.190 JLINK_HasError()
T14CC 001:500.148 JLINK_IsHalted()
T14CC 001:500.881 - 0.732ms returns FALSE
T14CC 001:500.932 JLINK_HasError()
T14CC 001:514.775 JLINK_IsHalted()
T14CC 001:516.797 - 2.019ms returns FALSE
T14CC 001:516.901 JLINK_HasError()
T14CC 001:529.778 JLINK_IsHalted()
T14CC 001:531.976 - 2.195ms returns FALSE
T14CC 001:532.178 JLINK_HasError()
T14CC 001:544.013 JLINK_IsHalted()
T14CC 001:545.949 - 1.934ms returns FALSE
T14CC 001:546.015 JLINK_HasError()
T14CC 001:557.827 JLINK_IsHalted()
T14CC 001:559.617 - 1.788ms returns FALSE
T14CC 001:559.739 JLINK_HasError()
T14CC 001:573.642 JLINK_IsHalted()
T14CC 001:575.356 - 1.713ms returns FALSE
T14CC 001:575.421 JLINK_HasError()
T14CC 001:585.583 JLINK_IsHalted()
T14CC 001:586.786 - 1.202ms returns FALSE
T14CC 001:586.833 JLINK_HasError()
T14CC 001:601.283 JLINK_IsHalted()
T14CC 001:602.050 - 0.765ms returns FALSE
T14CC 001:602.102 JLINK_HasError()
T14CC 001:616.273 JLINK_IsHalted()
T14CC 001:620.430   CPU_ReadMem(2 bytes @ 0x20000000)
T14CC 001:621.319 - 5.044ms returns TRUE
T14CC 001:621.361 JLINK_ReadReg(R15 (PC))
T14CC 001:621.379 - 0.017ms returns 0x20000000
T14CC 001:621.391 JLINK_ClrBPEx(BPHandle = 0x00000007)
T14CC 001:621.403 - 0.012ms returns 0x00
T14CC 001:621.416 JLINK_ReadReg(R0)
T14CC 001:621.426 - 0.010ms returns 0x00000000
T14CC 001:622.306 JLINK_HasError()
T14CC 001:622.337 JLINK_WriteReg(R0, 0x00000001)
T14CC 001:622.352 - 0.015ms returns 0
T14CC 001:622.364 JLINK_WriteReg(R1, 0x00004000)
T14CC 001:622.375 - 0.010ms returns 0
T14CC 001:622.386 JLINK_WriteReg(R2, 0x000000FF)
T14CC 001:622.397 - 0.010ms returns 0
T14CC 001:622.408 JLINK_WriteReg(R3, 0x00000000)
T14CC 001:622.419 - 0.010ms returns 0
T14CC 001:622.430 JLINK_WriteReg(R4, 0x00000000)
T14CC 001:622.440 - 0.010ms returns 0
T14CC 001:622.452 JLINK_WriteReg(R5, 0x00000000)
T14CC 001:622.462 - 0.010ms returns 0
T14CC 001:622.474 JLINK_WriteReg(R6, 0x00000000)
T14CC 001:622.484 - 0.010ms returns 0
T14CC 001:622.495 JLINK_WriteReg(R7, 0x00000000)
T14CC 001:622.506 - 0.010ms returns 0
T14CC 001:622.517 JLINK_WriteReg(R8, 0x00000000)
T14CC 001:622.527 - 0.010ms returns 0
T14CC 001:622.539 JLINK_WriteReg(R9, 0x20000180)
T14CC 001:622.549 - 0.010ms returns 0
T14CC 001:622.561 JLINK_WriteReg(R10, 0x00000000)
T14CC 001:622.571 - 0.010ms returns 0
T14CC 001:622.583 JLINK_WriteReg(R11, 0x00000000)
T14CC 001:622.593 - 0.010ms returns 0
T14CC 001:622.604 JLINK_WriteReg(R12, 0x00000000)
T14CC 001:622.614 - 0.010ms returns 0
T14CC 001:622.627 JLINK_WriteReg(R13 (SP), 0x20001000)
T14CC 001:622.637 - 0.011ms returns 0
T14CC 001:622.649 JLINK_WriteReg(R14, 0x20000001)
T14CC 001:622.659 - 0.010ms returns 0
T14CC 001:622.671 JLINK_WriteReg(R15 (PC), 0x20000086)
T14CC 001:622.681 - 0.010ms returns 0
T14CC 001:622.693 JLINK_WriteReg(XPSR, 0x01000000)
T14CC 001:622.703 - 0.010ms returns 0
T14CC 001:622.715 JLINK_WriteReg(MSP, 0x20001000)
T14CC 001:622.725 - 0.010ms returns 0
T14CC 001:622.736 JLINK_WriteReg(PSP, 0x20001000)
T14CC 001:622.747 - 0.010ms returns 0
T14CC 001:622.758 JLINK_WriteReg(CFBP, 0x00000000)
T14CC 001:622.768 - 0.010ms returns 0
T14CC 001:622.782 JLINK_SetBPEx(Addr = 0x20000000, Type = 0xFFFFFFF2)
T14CC 001:622.794 - 0.013ms returns 0x00000008
T14CC 001:622.806 JLINK_Go()
T14CC 001:622.833   CPU_ReadMem(4 bytes @ 0xE0001000)
T14CC 001:627.379 - 4.571ms 
T14CC 001:627.426 JLINK_IsHalted()
T14CC 001:631.625   CPU_ReadMem(2 bytes @ 0x20000000)
T14CC 001:632.656 - 5.227ms returns TRUE
T14CC 001:632.707 JLINK_ReadReg(R15 (PC))
T14CC 001:632.728 - 0.023ms returns 0x20000000
T14CC 001:632.744 JLINK_ClrBPEx(BPHandle = 0x00000008)
T14CC 001:632.758 - 0.014ms returns 0x00
T14CC 001:632.773 JLINK_ReadReg(R0)
T14CC 001:632.786 - 0.013ms returns 0x00000000
T14CC 001:713.810 JLINK_WriteMem(0x20000000, 0x184 Bytes, ...)
T14CC 001:713.825   Data:  00 BE 0A E0 0D 78 2D 06 68 40 08 24 40 00 00 D3 ...
T14CC 001:713.846   CPU_WriteMem(388 bytes @ 0x20000000)
T14CC 001:719.168 - 5.357ms returns 0x184
T14CC 001:719.235 JLINK_HasError()
T14CC 001:719.245 JLINK_WriteReg(R0, 0x08000000)
T14CC 001:719.255 - 0.009ms returns 0
T14CC 001:719.262 JLINK_WriteReg(R1, 0x007A1200)
T14CC 001:719.270 - 0.009ms returns 0
T14CC 001:719.276 JLINK_WriteReg(R2, 0x00000002)
T14CC 001:719.282 - 0.005ms returns 0
T14CC 001:719.288 JLINK_WriteReg(R3, 0x00000000)
T14CC 001:719.293 - 0.005ms returns 0
T14CC 001:719.299 JLINK_WriteReg(R4, 0x00000000)
T14CC 001:719.304 - 0.005ms returns 0
T14CC 001:719.310 JLINK_WriteReg(R5, 0x00000000)
T14CC 001:719.316 - 0.005ms returns 0
T14CC 001:719.322 JLINK_WriteReg(R6, 0x00000000)
T14CC 001:719.327 - 0.005ms returns 0
T14CC 001:719.333 JLINK_WriteReg(R7, 0x00000000)
T14CC 001:719.338 - 0.005ms returns 0
T14CC 001:719.344 JLINK_WriteReg(R8, 0x00000000)
T14CC 001:719.349 - 0.005ms returns 0
T14CC 001:719.355 JLINK_WriteReg(R9, 0x20000180)
T14CC 001:719.360 - 0.005ms returns 0
T14CC 001:719.366 JLINK_WriteReg(R10, 0x00000000)
T14CC 001:719.372 - 0.005ms returns 0
T14CC 001:719.378 JLINK_WriteReg(R11, 0x00000000)
T14CC 001:719.383 - 0.005ms returns 0
T14CC 001:719.389 JLINK_WriteReg(R12, 0x00000000)
T14CC 001:719.394 - 0.005ms returns 0
T14CC 001:719.401 JLINK_WriteReg(R13 (SP), 0x20001000)
T14CC 001:719.407 - 0.006ms returns 0
T14CC 001:719.413 JLINK_WriteReg(R14, 0x20000001)
T14CC 001:719.418 - 0.005ms returns 0
T14CC 001:719.424 JLINK_WriteReg(R15 (PC), 0x20000054)
T14CC 001:719.430 - 0.005ms returns 0
T14CC 001:719.436 JLINK_WriteReg(XPSR, 0x01000000)
T14CC 001:719.441 - 0.005ms returns 0
T14CC 001:719.447 JLINK_WriteReg(MSP, 0x20001000)
T14CC 001:719.452 - 0.005ms returns 0
T14CC 001:719.458 JLINK_WriteReg(PSP, 0x20001000)
T14CC 001:719.464 - 0.005ms returns 0
T14CC 001:719.470 JLINK_WriteReg(CFBP, 0x00000000)
T14CC 001:719.475 - 0.005ms returns 0
T14CC 001:719.482 JLINK_SetBPEx(Addr = 0x20000000, Type = 0xFFFFFFF2)
T14CC 001:719.492   CPU_ReadMem(2 bytes @ 0x20000000)
T14CC 001:720.252 - 0.770ms returns 0x00000009
T14CC 001:720.273 JLINK_Go()
T14CC 001:720.283   CPU_WriteMem(2 bytes @ 0x20000000)
T14CC 001:721.074   CPU_ReadMem(4 bytes @ 0xE0001000)
T14CC 001:725.808 - 5.534ms 
T14CC 001:725.832 JLINK_IsHalted()
T14CC 001:729.933   CPU_ReadMem(2 bytes @ 0x20000000)
T14CC 001:730.745 - 4.911ms returns TRUE
T14CC 001:730.803 JLINK_ReadReg(R15 (PC))
T14CC 001:730.826 - 0.022ms returns 0x20000000
T14CC 001:730.844 JLINK_ClrBPEx(BPHandle = 0x00000009)
T14CC 001:730.859 - 0.016ms returns 0x00
T14CC 001:730.876 JLINK_ReadReg(R0)
T14CC 001:730.891 - 0.014ms returns 0x00000000
T14CC 001:731.712 JLINK_WriteMem(0x20000184, 0x27C Bytes, ...)
T14CC 001:731.744   Data:  00 00 02 20 19 03 00 08 21 03 00 08 23 03 00 08 ...
T14CC 001:731.800   CPU_WriteMem(636 bytes @ 0x20000184)
T14CC 001:743.012 - 11.300ms returns 0x27C
T14CC 001:743.043 JLINK_WriteMem(0x20000400, 0x184 Bytes, ...)
T14CC 001:743.048   Data:  E0 86 78 29 00 F0 C1 81 E9 29 00 F0 7B 86 E4 29 ...
T14CC 001:743.070   CPU_WriteMem(388 bytes @ 0x20000400)
T14CC 001:750.333 - 7.288ms returns 0x184
T14CC 001:750.365 JLINK_HasError()
T14CC 001:750.376 JLINK_WriteReg(R0, 0x08000000)
T14CC 001:750.389 - 0.013ms returns 0
T14CC 001:750.397 JLINK_WriteReg(R1, 0x00000400)
T14CC 001:750.404 - 0.007ms returns 0
T14CC 001:750.412 JLINK_WriteReg(R2, 0x20000184)
T14CC 001:750.419 - 0.006ms returns 0
T14CC 001:750.432 JLINK_WriteReg(R3, 0x00000000)
T14CC 001:750.441 - 0.009ms returns 0
T14CC 001:750.449 JLINK_WriteReg(R4, 0x00000000)
T14CC 001:750.456 - 0.006ms returns 0
T14CC 001:750.472 JLINK_WriteReg(R5, 0x00000000)
T14CC 001:750.480 - 0.016ms returns 0
T14CC 001:750.488 JLINK_WriteReg(R6, 0x00000000)
T14CC 001:750.495 - 0.006ms returns 0
T14CC 001:750.502 JLINK_WriteReg(R7, 0x00000000)
T14CC 001:750.509 - 0.006ms returns 0
T14CC 001:750.517 JLINK_WriteReg(R8, 0x00000000)
T14CC 001:750.524 - 0.007ms returns 0
T14CC 001:750.531 JLINK_WriteReg(R9, 0x20000180)
T14CC 001:750.538 - 0.006ms returns 0
T14CC 001:750.546 JLINK_WriteReg(R10, 0x00000000)
T14CC 001:750.552 - 0.006ms returns 0
T14CC 001:750.560 JLINK_WriteReg(R11, 0x00000000)
T14CC 001:750.567 - 0.006ms returns 0
T14CC 001:750.574 JLINK_WriteReg(R12, 0x00000000)
T14CC 001:750.581 - 0.006ms returns 0
T14CC 001:750.589 JLINK_WriteReg(R13 (SP), 0x20001000)
T14CC 001:750.596 - 0.007ms returns 0
T14CC 001:750.604 JLINK_WriteReg(R14, 0x20000001)
T14CC 001:750.610 - 0.006ms returns 0
T14CC 001:750.639 JLINK_WriteReg(R15 (PC), 0x2000010C)
T14CC 001:750.654 - 0.015ms returns 0
T14CC 001:750.663 JLINK_WriteReg(XPSR, 0x01000000)
T14CC 001:750.670 - 0.007ms returns 0
T14CC 001:750.678 JLINK_WriteReg(MSP, 0x20001000)
T14CC 001:750.685 - 0.007ms returns 0
T14CC 001:750.693 JLINK_WriteReg(PSP, 0x20001000)
T14CC 001:750.700 - 0.007ms returns 0
T14CC 001:750.708 JLINK_WriteReg(CFBP, 0x00000000)
T14CC 001:750.715 - 0.006ms returns 0
T14CC 001:750.723 JLINK_SetBPEx(Addr = 0x20000000, Type = 0xFFFFFFF2)
T14CC 001:750.732 - 0.009ms returns 0x0000000A
T14CC 001:750.788 JLINK_Go()
T14CC 001:750.808   CPU_ReadMem(4 bytes @ 0xE0001000)
T14CC 001:757.744 - 6.954ms 
T14CC 001:757.805 JLINK_IsHalted()
T14CC 001:759.046 - 1.240ms returns FALSE
T14CC 001:759.085 JLINK_HasError()
T14CC 001:764.757 JLINK_IsHalted()
T14CC 001:768.754   CPU_ReadMem(2 bytes @ 0x20000000)
T14CC 001:769.352 - 4.594ms returns TRUE
T14CC 001:769.359 JLINK_ReadReg(R15 (PC))
T14CC 001:769.366 - 0.005ms returns 0x20000000
T14CC 001:769.370 JLINK_ClrBPEx(BPHandle = 0x0000000A)
T14CC 001:769.374 - 0.004ms returns 0x00
T14CC 001:769.378 JLINK_ReadReg(R0)
T14CC 001:769.381 - 0.003ms returns 0x00000000
T14CC 001:770.004 JLINK_WriteMem(0x20000184, 0x27C Bytes, ...)
T14CC 001:770.018   Data:  00 2B 1F BF B3 FA 83 F5 03 FA 05 F4 24 FA 05 F6 ...
T14CC 001:770.034   CPU_WriteMem(636 bytes @ 0x20000184)
T14CC 001:778.140 - 8.135ms returns 0x27C
T14CC 001:778.193 JLINK_WriteMem(0x20000400, 0x184 Bytes, ...)
T14CC 001:778.197   Data:  E1 68 88 47 20 28 05 46 07 DB 31 2D 05 D2 78 19 ...
T14CC 001:778.210   CPU_WriteMem(388 bytes @ 0x20000400)
T14CC 001:783.503 - 5.310ms returns 0x184
T14CC 001:783.518 JLINK_HasError()
T14CC 001:783.524 JLINK_WriteReg(R0, 0x08000400)
T14CC 001:783.529 - 0.006ms returns 0
T14CC 001:783.533 JLINK_WriteReg(R1, 0x00000400)
T14CC 001:783.536 - 0.003ms returns 0
T14CC 001:783.540 JLINK_WriteReg(R2, 0x20000184)
T14CC 001:783.544 - 0.003ms returns 0
T14CC 001:783.547 JLINK_WriteReg(R3, 0x00000000)
T14CC 001:783.550 - 0.003ms returns 0
T14CC 001:783.554 JLINK_WriteReg(R4, 0x00000000)
T14CC 001:783.557 - 0.003ms returns 0
T14CC 001:783.561 JLINK_WriteReg(R5, 0x00000000)
T14CC 001:783.564 - 0.003ms returns 0
T14CC 001:783.568 JLINK_WriteReg(R6, 0x00000000)
T14CC 001:783.571 - 0.003ms returns 0
T14CC 001:783.575 JLINK_WriteReg(R7, 0x00000000)
T14CC 001:783.578 - 0.003ms returns 0
T14CC 001:783.582 JLINK_WriteReg(R8, 0x00000000)
T14CC 001:783.585 - 0.003ms returns 0
T14CC 001:783.589 JLINK_WriteReg(R9, 0x20000180)
T14CC 001:783.592 - 0.003ms returns 0
T14CC 001:783.596 JLINK_WriteReg(R10, 0x00000000)
T14CC 001:783.599 - 0.003ms returns 0
T14CC 001:783.603 JLINK_WriteReg(R11, 0x00000000)
T14CC 001:783.606 - 0.003ms returns 0
T14CC 001:783.610 JLINK_WriteReg(R12, 0x00000000)
T14CC 001:783.613 - 0.003ms returns 0
T14CC 001:783.616 JLINK_WriteReg(R13 (SP), 0x20001000)
T14CC 001:783.620 - 0.004ms returns 0
T14CC 001:783.624 JLINK_WriteReg(R14, 0x20000001)
T14CC 001:783.634 - 0.009ms returns 0
T14CC 001:783.638 JLINK_WriteReg(R15 (PC), 0x2000010C)
T14CC 001:783.641 - 0.003ms returns 0
T14CC 001:783.644 JLINK_WriteReg(XPSR, 0x01000000)
T14CC 001:783.648 - 0.003ms returns 0
T14CC 001:783.652 JLINK_WriteReg(MSP, 0x20001000)
T14CC 001:783.655 - 0.003ms returns 0
T14CC 001:783.658 JLINK_WriteReg(PSP, 0x20001000)
T14CC 001:783.662 - 0.003ms returns 0
T14CC 001:783.665 JLINK_WriteReg(CFBP, 0x00000000)
T14CC 001:783.669 - 0.003ms returns 0
T14CC 001:783.673 JLINK_SetBPEx(Addr = 0x20000000, Type = 0xFFFFFFF2)
T14CC 001:783.677 - 0.004ms returns 0x0000000B
T14CC 001:783.681 JLINK_Go()
T14CC 001:783.690   CPU_ReadMem(4 bytes @ 0xE0001000)
T14CC 001:787.821 - 4.138ms 
T14CC 001:787.864 JLINK_IsHalted()
T14CC 001:788.601 - 0.735ms returns FALSE
T14CC 001:788.660 JLINK_HasError()
T14CC 001:792.630 JLINK_IsHalted()
T14CC 001:796.297   CPU_ReadMem(2 bytes @ 0x20000000)
T14CC 001:797.072 - 4.439ms returns TRUE
T14CC 001:797.133 JLINK_ReadReg(R15 (PC))
T14CC 001:797.160 - 0.026ms returns 0x20000000
T14CC 001:797.181 JLINK_ClrBPEx(BPHandle = 0x0000000B)
T14CC 001:797.200 - 0.019ms returns 0x00
T14CC 001:797.221 JLINK_ReadReg(R0)
T14CC 001:797.238 - 0.017ms returns 0x00000000
T14CC 001:798.591 JLINK_WriteMem(0x20000184, 0x27C Bytes, ...)
T14CC 001:798.629   Data:  70 BD 70 B5 10 B1 BD E8 70 40 DF E7 00 25 07 4C ...
T14CC 001:798.675   CPU_WriteMem(636 bytes @ 0x20000184)
T14CC 001:806.918 - 8.325ms returns 0x27C
T14CC 001:806.983 JLINK_WriteMem(0x20000400, 0x184 Bytes, ...)
T14CC 001:807.005   Data:  44 BF 18 C9 18 C0 BD E8 10 40 5F EA 82 7C 24 BF ...
T14CC 001:807.053   CPU_WriteMem(388 bytes @ 0x20000400)
T14CC 001:812.315 - 5.331ms returns 0x184
T14CC 001:812.370 JLINK_HasError()
T14CC 001:812.388 JLINK_WriteReg(R0, 0x08000800)
T14CC 001:812.409 - 0.020ms returns 0
